hour, t(sec), S1 (kVA), Ang1, S2 (kVA), Ang2, S3 (kVA), Ang3
0, 900.00000, 601.717, -5.81896, 688.662, -4.13671, 851.767, 3.89516
0, 1800.00000, 586.116, -6.82116, 695.279, -4.28919, 846.348, 3.43621
0, 2700.00000, 567.42, -6.97614, 656.049, -4.87675, 808.876, 3.4081
1, 0.00000, 587.924, -6.14033, 673.255, -4.3638, 833.188, 3.79161
1, 900.00000, 555.714, -7.32027, 635.114, -5.34971, 787.967, 3.24487
1, 1800.00000, 546.104, -7.38051, 624.648, -5.4324, 771.287, 3.26992
1, 2700.00000, 553.06, -6.65259, 619.983, -5.19773, 773.396, 3.67284
2, 0.00000, 523.073, -7.75059, 584.886, -6.14788, 730.615, 3.19189
2, 900.00000, 522.522, -7.93481, 585.99, -6.25428, 727.155, 3.04466
2, 1800.00000, 527.266, -7.68676, 593.882, -5.94277, 728.023, 3.12761
2, 2700.00000, 495.59, -9.01166, 559.5, -6.97721, 692.858, 2.63248
3, 0.00000, 513.184, -8.60317, 586.117, -6.43322, 723.292, 2.76149
3, 900.00000, 515.992, -7.86388, 575.745, -6.25834, 716.896, 3.16858
3, 1800.00000, 527.062, -7.26648, 583.894, -5.84661, 725.74, 3.42399
3, 2700.00000, 480.168, -9.23104, 529.866, -7.62378, 655.218, 2.51947
4, 0.00000, 502.386, -8.50174, 567.908, -6.5547, 705.584, 2.9446
4, 900.00000, 607.553, -5.6278, 704.978, -3.67677, 842.074, 3.91657
4, 1800.00000, 521.132, -8.59487, 617.678, -5.67015, 734.188, 2.70072
4, 2700.00000, 638.76, -5.03684, 745.643, -3.05907, 922.235, 4.35463
5, 0.00000, 745.482, -3.3982, 901.836, -1.11422, 1088.27, 4.98144
5, 900.00000, 823.333, -2.72174, 1024.9, -0.166787, 1229.46, 5.2808
5, 1800.00000, 904.843, -1.1634, 1120.04, 1.12838, 1318.86, 6.08597
5, 2700.00000, 1223.35, 1.67056, 1482.34, 3.37591, 1816.56, 7.8347
6, 0.00000, 1426.46, 3.09393, 1731.51, 4.57291, 2069.01, 8.67807
6, 900.00000, 1931.82, 4.93547, 2237.17, 6.11395, 2761.23, 10.0476
6, 1800.00000, 2014.45, 5.46646, 2319, 6.47968, 2851.22, 10.4332
6, 2700.00000, 1559.69, 4.37314, 1737.63, 5.23711, 2268.13, 9.61443
7, 0.00000, 788.708, 0.133291, 842.431, 0.737281, 1116.22, 7.32406
7, 900.00000, 999.956, 1.66587, 1112.49, 2.55228, 1455.21, 7.93712
7, 1800.00000, 938.098, 1.82952, 1037.14, 3.58939, 1474.93, 8.64467
7, 2700.00000, 960.258, 2.35246, 1020.32, 3.57253, 1449.8, 8.73955
8, 0.00000, 638.63, -0.302613, 668.974, 1.46209, 1007.57, 8.27275
8, 900.00000, 486.99, -3.45361, 490.611, -1.50508, 773.089, 7.51663
8, 1800.00000, 476.237, -2.82211, 442.291, -1.85936, 732.083, 8.00504
8, 2700.00000, 398.831, -0.0982135, 298.813, 1.56695, 703.071, 10.9845
9, 0.00000, 678.839, 2.71525, 638.313, 4.62653, 1107.92, 10.1942
9, 900.00000, 312.659, -2.79, 187.602, -1.77605, 578.345, 11.2374
9, 1800.00000, 111.875, -7.25447, 76.1713, 178.368, 351.114, 18.1756
9, 2700.00000, 391.41, 6.54278, 251.179, 12.1419, 722.203, 14.9944
10, 0.00000, 287.982, 8.97981, 70.8287, 33.0726, 539.626, 18.584
10, 900.00000, 325.692, 7.68059, 126.886, 19.0599, 597.465, 16.92
10, 1800.00000, 918.574, 7.84105, 811.98, 9.12038, 1441.18, 12.7821
10, 2700.00000, 246.996, 9.3798, 44.9203, 63.3069, 505.972, 19.3795
11, 0.00000, 321.065, 9.86268, 125.076, 25.822, 617.273, 17.901
11, 900.00000, 337.905, 8.52753, 160.349, 19.8805, 648.646, 16.8036
11, 1800.00000, 405.935, 10.2717, 195.648, 19.9227, 721.504, 17.1408
11, 2700.00000, 356.998, 10.3608, 140.145, 26.1758, 638.978, 18.0537
12, 0.00000, 339.274, 8.68101, 142.338, 22.6609, 646.367, 16.9546
12, 900.00000, 368.793, 8.52973, 159.615, 20.2261, 716.996, 16.1954
12, 1800.00000, 175.019, 9.97398, 97.285, 163.055, 412.682, 21.8964
12, 2700.00000, 183.407, 9.12991, 87.5413, 162.589, 388.238, 22.4459
13, 0.00000, 212.855, 9.63854, 72.233, 155.87, 410.532, 22.0991
13, 900.00000, 228.165, 8.48216, 34.8336, 114.475, 451.086, 20.2329
13, 1800.00000, 449.606, 5.7261, 266.239, 7.93603, 703.501, 14.2903
13, 2700.00000, 442.623, 6.09728, 242.854, 8.18404, 714.719, 14.495
14, 0.00000, 365.958, 4.67222, 193.088, 7.42224, 601.783, 14.8473
14, 900.00000, 322.649, 3.80933, 121.494, 6.21993, 516.602, 15.5956
14, 1800.00000, 309.452, 3.87196, 110.12, 7.03495, 513.81, 15.7757
14, 2700.00000, 417.211, 3.93629, 246.258, 3.75454, 623.757, 13.7144
15, 0.00000, 559.394, 3.26054, 444.034, 3.54134, 867.109, 11.2768
15, 900.00000, 381.204, 0.208591, 252.129, -0.109573, 606.867, 11.6788
15, 1800.00000, 657.811, 1.83402, 589.203, 0.920922, 910.607, 9.32836
15, 2700.00000, 659.777, 0.936859, 609.331, 0.365812, 947.585, 8.72361
16, 0.00000, 786.13, 3.6724, 725.794, 2.81402, 1105, 10.022
16, 900.00000, 765.563, 3.46718, 716.403, 2.93034, 1077.42, 9.95566
16, 1800.00000, 699.018, 1.77829, 686.948, 1.81416, 1016.01, 9.08445
16, 2700.00000, 857.59, 2.35249, 884.804, 1.9632, 1182.08, 8.56311
17, 0.00000, 949.692, 2.88586, 983.679, 2.54153, 1326.06, 8.76461
17, 900.00000, 867.384, 2.38246, 891.279, 2.07901, 1216.38, 8.62029
17, 1800.00000, 963.807, 2.07405, 1043.48, 1.98077, 1321.01, 7.95645
17, 2700.00000, 1422.91, 4.19853, 1628.38, 4.69433, 2060.34, 9.46546
18, 0.00000, 1774.91, 4.84651, 2011.92, 5.57372, 2505.88, 9.75316
18, 900.00000, 1139.69, 2.5518, 1300.44, 3.17906, 1606.14, 8.12771
18, 1800.00000, 1241.35, 3.09998, 1424.38, 3.76268, 1758.83, 8.44255
18, 2700.00000, 1316.97, 2.70379, 1602.62, 4.17016, 1896.87, 8.28391
19, 0.00000, 1289.24, 2.5299, 1552.78, 3.74387, 1849.89, 8.07609
19, 900.00000, 1138.3, 1.65976, 1353.13, 2.79531, 1641.22, 7.56914
19, 1800.00000, 1081.45, 0.814333, 1293.52, 2.21717, 1592.96, 7.11537
19, 2700.00000, 1121, 1.41135, 1322.94, 2.52964, 1619.87, 7.40753
20, 0.00000, 1061.03, 0.865712, 1252.6, 2.09857, 1532.33, 7.10079
20, 900.00000, 958.679, -0.772771, 1171.06, 1.18696, 1403.89, 6.16792
20, 1800.00000, 993.252, -0.02758, 1192.29, 1.52168, 1436.21, 6.55795
20, 2700.00000, 1014.88, -0.144843, 1237.03, 1.68911, 1466.68, 6.46532
21, 0.00000, 1094.39, 0.679322, 1294.3, 2.04964, 1573.63, 6.86814
21, 900.00000, 920.117, -0.841529, 1083.25, 0.632239, 1332.07, 6.1329
21, 1800.00000, 876.177, -1.41351, 1034.61, 0.155077, 1270.29, 5.83567
21, 2700.00000, 958.949, -0.296419, 1134.32, 1.14361, 1378.74, 6.40552
22, 0.00000, 866.661, -1.22277, 1022.38, 0.271385, 1246.97, 5.96719
22, 900.00000, 772.522, -2.29828, 900.299, -0.924528, 1102.25, 5.47024
22, 1800.00000, 689.42, -4.43119, 820.041, -2.28742, 998.987, 4.43669
22, 2700.00000, 725.434, -3.09483, 847.26, -1.60896, 1043.94, 5.14981
23, 0.00000, 606.985, -6.45795, 726.663, -3.82212, 886.097, 3.58757
23, 900.00000, 609.852, -5.87823, 705.703, -3.95905, 877.618, 3.87223
23, 1800.00000, 582.848, -6.87391, 686.93, -4.41172, 848.105, 3.46108
23, 2700.00000, 636.054, -5.36472, 744.303, -3.31492, 911.64, 4.03667
24, 0.00000, 584.093, -6.66808, 681.346, -4.42676, 837.633, 3.51169
